time	V(1ni)	V(vout)
0.000000000000000e+000	1.256637e-004	3.582603e-003
1.875000021911432e-009	1.492257e-004	3.582603e-003
1.207359064919509e-007	1.642877e-003	3.582604e-003
2.395968129619904e-007	3.136526e-003	3.582613e-003
3.584577194320299e-007	4.630171e-003	3.582630e-003
4.773186259020693e-007	6.123814e-003	3.582655e-003
5.961795323721088e-007	7.617455e-003	3.582688e-003
7.150404388421483e-007	9.111092e-003	3.582729e-003
8.339013453121874e-007	1.060473e-002	3.582778e-003
1.567797703783957e-006	1.982687e-002	3.583577e-003
3.035590420727495e-006	3.826968e-002	3.587288e-003
5.026744498844900e-006	6.328303e-002	3.595832e-003
7.403776016592356e-006	9.313057e-002	3.610237e-003
1.042552166725109e-005	1.310427e-001	3.632760e-003
1.273599626405890e-005	1.599998e-001	3.652437e-003
1.589679931632373e-005	1.995581e-001	3.682446e-003
1.915310530672550e-005	2.402292e-001	3.717384e-003
2.223973323071148e-005	2.786885e-001	3.755873e-003
2.363546457978887e-005	2.960458e-001	3.776960e-003
2.445140968257148e-005	3.061824e-001	3.793531e-003
2.491405573024286e-005	3.119263e-001	3.815803e-003
2.517149951478550e-005	3.151214e-001	3.863907e-003
2.533475203710749e-005	3.171471e-001	3.977673e-003
2.551163212088090e-005	3.193416e-001	4.297311e-003
2.568972997167019e-005	3.215507e-001	4.974464e-003
2.592788710001280e-005	3.245042e-001	6.495218e-003
2.611138381287893e-005	3.267793e-001	8.158705e-003
2.624231568878951e-005	3.284024e-001	9.674370e-003
2.639794724368776e-005	3.303314e-001	1.173325e-002
2.645696080188524e-005	3.310628e-001	1.257160e-002
2.653011588243330e-005	3.319694e-001	1.365630e-002
2.661061172577082e-005	3.329668e-001	1.487399e-002
2.679025456628861e-005	3.351926e-001	1.764419e-002
2.704105074256853e-005	3.382992e-001	2.156478e-002
2.885105725566356e-005	3.606988e-001	4.961953e-002
3.066106376875859e-005	3.830455e-001	7.724833e-002
3.247107028185361e-005	4.053392e-001	1.044512e-001
3.428107679494865e-005	4.275800e-001	1.312281e-001
3.609108330804368e-005	4.497677e-001	1.575790e-001
3.790108982113870e-005	4.719025e-001	1.835040e-001
3.971109633423373e-005	4.939843e-001	2.090030e-001
4.459390883423373e-005	5.532007e-001	2.768431e-001
5.435953383423372e-005	6.700162e-001	4.069251e-001
6.412515883423373e-005	7.843100e-001	5.312377e-001
7.877359633423374e-005	9.500843e-001	7.092962e-001
9.272448919137662e-005	1.102928e+000	8.725847e-001
1.066753820485195e-004	1.244826e+000	1.026089e+000
1.206262749056624e-004	1.375781e+000	1.169808e+000
1.345771677628052e-004	1.495791e+000	1.303743e+000
1.485280606199481e-004	1.604856e+000	1.427893e+000
1.624789534770910e-004	1.702978e+000	1.542259e+000
1.764298463342338e-004	1.790154e+000	1.646841e+000
1.854979266913767e-004	1.838297e+000	1.707073e+000
1.945660070485196e-004	1.880194e+000	1.761383e+000
2.036340874056624e-004	1.915845e+000	1.809770e+000
2.127021677628053e-004	1.945249e+000	1.852234e+000
2.217702481199482e-004	1.968408e+000	1.888775e+000
2.308383284770910e-004	1.985321e+000	1.919393e+000
2.399064088342339e-004	1.995987e+000	1.944088e+000
2.545548463342339e-004	1.999177e+000	1.970150e+000
2.594376588342339e-004	1.996477e+000	1.975167e+000
2.643204713342339e-004	1.991898e+000	1.978371e+000
2.692032838342339e-004	1.985444e+000	1.980020e+000
2.717391729911425e-004	1.981355e+000	1.980253e+000
2.737504455247802e-004	1.977754e+000	1.980106e+000
2.759207603914623e-004	1.973513e+000	1.979777e+000
2.781536540725906e-004	1.968768e+000	1.979358e+000
2.809176343668734e-004	1.962357e+000	1.978807e+000
2.838113249759803e-004	1.955011e+000	1.978223e+000
2.886941374759803e-004	1.941152e+000	1.977233e+000
2.935769499759803e-004	1.925466e+000	1.976239e+000
2.984597624759803e-004	1.907967e+000	1.975243e+000
3.033425749759803e-004	1.888673e+000	1.974245e+000
3.082253874759803e-004	1.867602e+000	1.973247e+000
3.131081999759803e-004	1.844772e+000	1.972253e+000
3.179910124759803e-004	1.820207e+000	1.971268e+000
3.186013640384803e-004	1.817015e+000	1.971147e+000
3.198220671634803e-004	1.810552e+000	1.970906e+000
3.222634734134803e-004	1.797306e+000	1.970425e+000
3.264233478480436e-004	1.773764e+000	1.969605e+000
3.308617248840725e-004	1.747310e+000	1.968730e+000
3.406273498840725e-004	1.684351e+000	1.966808e+000
3.538806980983582e-004	1.586710e+000	1.964202e+000
3.671340463126440e-004	1.480103e+000	1.961600e+000
3.803873945269297e-004	1.364531e+000	1.959001e+000
3.936407427412154e-004	1.239993e+000	1.956405e+000
4.068940909555011e-004	1.106489e+000	1.953813e+000
4.201474391697869e-004	9.640192e-001	1.951224e+000
4.334007873840726e-004	8.125840e-001	1.948639e+000
4.410737784555011e-004	7.230306e-001	1.947144e+000
4.487467695269297e-004	6.323318e-001	1.945650e+000
4.564197605983583e-004	5.404876e-001	1.944157e+000
4.640927516697869e-004	4.474980e-001	1.942666e+000
4.717657427412155e-004	3.533629e-001	1.941175e+000
4.794387338126441e-004	2.580825e-001	1.939685e+000
4.871117248840726e-004	1.616566e-001	1.938197e+000
4.912969927412154e-004	1.090944e-001	1.937386e+000
4.954822605983583e-004	5.654748e-002	1.936575e+000
4.996675284555011e-004	4.015952e-003	1.935764e+000
5.038527963126440e-004	-4.850020e-002	1.934954e+000
5.080380641697868e-004	-1.010010e-001	1.934144e+000
5.122233320269297e-004	-1.534864e-001	1.933334e+000
5.164085998840725e-004	-2.059565e-001	1.932525e+000
5.247791355983582e-004	-3.109522e-001	1.930908e+000
5.331496713126439e-004	-4.143857e-001	1.929291e+000
5.415202070269297e-004	-5.162569e-001	1.927677e+000
5.498907427412155e-004	-6.165658e-001	1.926063e+000
5.582612784555012e-004	-7.153126e-001	1.924451e+000
5.666318141697869e-004	-8.124970e-001	1.922840e+000
5.750023498840726e-004	-9.081193e-001	1.921231e+000
5.889532427412155e-004	-1.063105e+000	1.918551e+000
6.029041355983583e-004	-1.207401e+000	1.915876e+000
6.168550284555012e-004	-1.341006e+000	1.913204e+000
6.308059213126440e-004	-1.463920e+000	1.910536e+000
6.447568141697870e-004	-1.576144e+000	1.907871e+000
6.587077070269299e-004	-1.677678e+000	1.905210e+000
6.726585998840727e-004	-1.768522e+000	1.902553e+000
6.991652963126441e-004	-1.898397e+000	1.897515e+000
7.256719927412156e-004	-1.974823e+000	1.892490e+000
7.521786891697870e-004	-1.997800e+000	1.887479e+000
7.786853855983585e-004	-1.967329e+000	1.882480e+000
8.051920820269300e-004	-1.883409e+000	1.877495e+000
8.316987784555014e-004	-1.746041e+000	1.872523e+000
8.582054748840728e-004	-1.555224e+000	1.867565e+000
8.700637338126442e-004	-1.455681e+000	1.865350e+000
8.819219927412158e-004	-1.349639e+000	1.863139e+000
8.937802516697872e-004	-1.237097e+000	1.860930e+000
9.056385105983586e-004	-1.118056e+000	1.858724e+000
9.174967695269301e-004	-9.925152e-001	1.856520e+000
9.293550284555015e-004	-8.604748e-001	1.854319e+000
9.412132873840729e-004	-7.219347e-001	1.852121e+000
9.481887338126443e-004	-6.391128e-001	1.850829e+000
9.551641802412157e-004	-5.554697e-001	1.849538e+000
9.621396266697871e-004	-4.710054e-001	1.848247e+000
9.691150730983585e-004	-3.857199e-001	1.846958e+000
9.760905195269299e-004	-2.996132e-001	1.845670e+000
9.830659659555013e-004	-2.126853e-001	1.844382e+000
9.900414123840727e-004	-1.249362e-001	1.843096e+000
9.998070373840725e-004	-2.299176e-003	1.841296e+000
1.004689849884072e-003	5.919513e-002	1.840397e+000
1.009572662384072e-003	1.204901e-001	1.839498e+000
1.014455474884072e-003	1.815856e-001	1.838600e+000
1.019338287384072e-003	2.424818e-001	1.837702e+000
1.024221099884072e-003	3.031786e-001	1.836805e+000
1.029103912384072e-003	3.636760e-001	1.835907e+000
1.033986724884072e-003	4.239740e-001	1.835011e+000
1.044449894526929e-003	5.527573e-001	1.833091e+000
1.054913064169786e-003	6.778486e-001	1.831174e+000
1.065376233812643e-003	7.992477e-001	1.829258e+000
1.075839403455500e-003	9.169547e-001	1.827344e+000
1.086302573098357e-003	1.030970e+000	1.825432e+000
1.096765742741213e-003	1.141292e+000	1.823523e+000
1.107228912384070e-003	1.247923e+000	1.821615e+000
1.114204358812641e-003	1.315493e+000	1.820344e+000
1.121179805241213e-003	1.380241e+000	1.819074e+000
1.128155251669784e-003	1.442167e+000	1.817805e+000
1.135130698098355e-003	1.501273e+000	1.816537e+000
1.142106144526927e-003	1.557557e+000	1.815270e+000
1.149081590955498e-003	1.611020e+000	1.814004e+000
1.156057037384069e-003	1.661661e+000	1.812739e+000
1.160939849884069e-003	1.695022e+000	1.811853e+000
1.165822662384069e-003	1.726787e+000	1.810969e+000
1.170705474884069e-003	1.756927e+000	1.810085e+000
1.175588287384069e-003	1.785414e+000	1.809203e+000
1.178822920693409e-003	1.803361e+000	1.808619e+000
1.181995151152966e-003	1.820239e+000	1.808048e+000
1.185158115268693e-003	1.836347e+000	1.807482e+000
1.189427794269570e-003	1.856941e+000	1.806727e+000
1.194310606769570e-003	1.878852e+000	1.805872e+000
1.199193419269570e-003	1.898996e+000	1.805024e+000
1.204076231769570e-003	1.917352e+000	1.804185e+000
1.208959044269570e-003	1.933904e+000	1.803354e+000
1.212679151987680e-003	1.945293e+000	1.802730e+000
1.214298050619696e-003	1.949918e+000	1.802535e+000
1.215108795517381e-003	1.952159e+000	1.802745e+000
1.215461987609005e-003	1.953119e+000	1.803303e+000
1.215663254022564e-003	1.953662e+000	1.804030e+000
1.215813327266729e-003	1.954064e+000	1.804806e+000
1.215880406748248e-003	1.954244e+000	1.805209e+000
1.215979806665949e-003	1.954509e+000	1.805849e+000
1.216069552833194e-003	1.954748e+000	1.806448e+000
1.216165131345216e-003	1.955002e+000	1.807101e+000
1.216348677924179e-003	1.955487e+000	1.808378e+000
1.216654886322834e-003	1.956291e+000	1.810532e+000
1.222167139041651e-003	1.969517e+000	1.845799e+000
1.226745144773334e-003	1.978707e+000	1.870681e+000
1.231627957273334e-003	1.986704e+000	1.893920e+000
1.236510769773334e-003	1.992831e+000	1.913693e+000
1.241393582273334e-003	1.997083e+000	1.930299e+000
1.246276394773334e-003	1.999456e+000	1.944023e+000
1.251159207273333e-003	1.999946e+000	1.955088e+000
1.256042019773333e-003	1.998554e+000	1.963670e+000
1.260924832273333e-003	1.995281e+000	1.969911e+000
1.265807644773333e-003	1.990131e+000	1.973943e+000
1.270690457273333e-003	1.983107e+000	1.976130e+000
1.273235744886808e-003	1.978705e+000	1.976540e+000
1.275146095528638e-003	1.975069e+000	1.976479e+000
1.277095634701909e-003	1.971065e+000	1.976227e+000
1.279085242182441e-003	1.966673e+000	1.975873e+000
1.281488502243188e-003	1.960959e+000	1.975401e+000
1.284098109648534e-003	1.954248e+000	1.974876e+000
1.288080632936989e-003	1.942994e+000	1.974071e+000
1.292963445436989e-003	1.927536e+000	1.973079e+000
1.297846257936989e-003	1.910265e+000	1.972085e+000
1.302729070436989e-003	1.891195e+000	1.971089e+000
1.307611882936989e-003	1.870346e+000	1.970093e+000
1.312494695436988e-003	1.847736e+000	1.969097e+000
1.317377507936988e-003	1.823388e+000	1.968110e+000
1.321126930474321e-003	1.803525e+000	1.967365e+000
1.324983869308553e-003	1.782048e+000	1.966606e+000
1.342882686257175e-003	1.668900e+000	1.963087e+000
1.356136034471461e-003	1.569309e+000	1.960487e+000
1.369389382685746e-003	1.460901e+000	1.957889e+000
1.382642730900031e-003	1.343676e+000	1.955295e+000
1.395896079114317e-003	1.217634e+000	1.952704e+000
1.409149427328602e-003	1.082775e+000	1.950117e+000
1.422402775542888e-003	9.390994e-001	1.947533e+000
1.435656123757173e-003	7.866066e-001	1.944953e+000
1.443329114828602e-003	6.965352e-001	1.943461e+000
1.451002105900030e-003	6.053822e-001	1.941970e+000
1.458675096971458e-003	5.131476e-001	1.940480e+000
1.466348088042887e-003	4.198313e-001	1.938991e+000
1.474021079114315e-003	3.254334e-001	1.937503e+000
1.481694070185744e-003	2.299539e-001	1.936016e+000
1.489367061257172e-003	1.333927e-001	1.934531e+000
1.513781123757172e-003	-1.730876e-001	1.929812e+000
1.522151659471457e-003	-2.782963e-001	1.928197e+000
1.530522195185742e-003	-3.820302e-001	1.926583e+000
1.538892730900028e-003	-4.842894e-001	1.924970e+000
1.547263266614314e-003	-5.850739e-001	1.923359e+000
1.555633802328599e-003	-6.843836e-001	1.921749e+000
1.564004338042885e-003	-7.822186e-001	1.920140e+000
1.572374873757170e-003	-8.785789e-001	1.918533e+000
1.586325766614313e-003	-1.035006e+000	1.915858e+000
1.600276659471455e-003	-1.180924e+000	1.913186e+000
1.614227552328598e-003	-1.316331e+000	1.910518e+000
1.628178445185740e-003	-1.441229e+000	1.907853e+000
1.642129338042883e-003	-1.555616e+000	1.905192e+000
1.656080230900026e-003	-1.659494e+000	1.902535e+000
1.670031123757168e-003	-1.752862e+000	1.899882e+000
1.697235364828596e-003	-1.890682e+000	1.894719e+000
1.724439605900024e-003	-1.972294e+000	1.889569e+000
1.751643846971452e-003	-1.997700e+000	1.884434e+000
1.778848088042880e-003	-1.966898e+000	1.879312e+000
1.806052329114308e-003	-1.879889e+000	1.874205e+000
1.833256570185736e-003	-1.736672e+000	1.869111e+000
1.860460811257164e-003	-1.537248e+000	1.864032e+000
1.872319070185735e-003	-1.436107e+000	1.861822e+000
1.884177329114307e-003	-1.328593e+000	1.859614e+000
1.896035588042878e-003	-1.214706e+000	1.857410e+000
1.907893846971449e-003	-1.094447e+000	1.855208e+000
1.919752105900020e-003	-9.678147e-001	1.853008e+000
1.931610364828591e-003	-8.348100e-001	1.850811e+000
1.943468623757162e-003	-6.954325e-001	1.848617e+000
1.950444070185734e-003	-6.121947e-001	1.847327e+000
1.957419516614305e-003	-5.281889e-001	1.846039e+000
1.964394963042876e-003	-4.434149e-001	1.844751e+000
1.971370409471448e-003	-3.578729e-001	1.843464e+000
1.978345855900019e-003	-2.715629e-001	1.842178e+000
1.985321302328590e-003	-1.844848e-001	1.840893e+000
1.992296748757162e-003	-9.663860e-002	1.839609e+000
1.995784471971447e-003	-5.278949e-002	1.838967e+000
1.999272195185733e-003	-8.967590e-003	1.838326e+000
2.002759918400019e-003	3.482709e-002	1.837685e+000
2.006247641614304e-003	7.859454e-002	1.837044e+000
2.009735364828590e-003	1.223348e-001	1.836403e+000
2.013223088042875e-003	1.660478e-001	1.835762e+000
2.016710811257161e-003	2.097336e-001	1.835122e+000
2.025081346971447e-003	3.147030e-001	1.833586e+000
2.033451882685732e-003	4.181001e-001	1.832051e+000
2.041822418400018e-003	5.199249e-001	1.830517e+000
2.050192954114303e-003	6.201774e-001	1.828985e+000
2.058563489828589e-003	7.188577e-001	1.827454e+000
2.066934025542874e-003	8.159656e-001	1.825925e+000
2.075304561257160e-003	9.115013e-001	1.824396e+000
2.086465275542874e-003	1.035324e+000	1.822361e+000
2.097625989828588e-003	1.152708e+000	1.820327e+000
2.108786704114302e-003	1.263654e+000	1.818296e+000
2.119947418400016e-003	1.368163e+000	1.816267e+000
2.131108132685730e-003	1.466233e+000	1.814240e+000
2.142268846971444e-003	1.557865e+000	1.812216e+000
2.153429561257158e-003	1.643060e+000	1.810193e+000
2.158312373757158e-003	1.677266e+000	1.809309e+000
2.163195186257158e-003	1.709894e+000	1.808426e+000
2.168077998757158e-003	1.740912e+000	1.807543e+000
2.172960811257158e-003	1.770292e+000	1.806662e+000
2.176662384913691e-003	1.791456e+000	1.805994e+000
2.180259495313287e-003	1.811093e+000	1.805346e+000
2.183236365175405e-003	1.826646e+000	1.804813e+000
2.186212831752769e-003	1.841558e+000	1.804285e+000
2.191095644252769e-003	1.864623e+000	1.803427e+000
2.195978456752769e-003	1.885933e+000	1.802576e+000
2.200861269252769e-003	1.905468e+000	1.801734e+000
2.205744081752769e-003	1.923210e+000	1.800900e+000
2.210626894252769e-003	1.939141e+000	1.800075e+000
2.212814482241620e-003	1.945688e+000	1.799714e+000
2.213996028952462e-003	1.949071e+000	1.799568e+000
2.214500624130315e-003	1.950483e+000	1.799683e+000
2.214785660954236e-003	1.951272e+000	1.800061e+000
2.214970560284915e-003	1.951780e+000	1.800631e+000
2.215134257435296e-003	1.952228e+000	1.801390e+000
2.215216464354919e-003	1.952452e+000	1.801853e+000
2.215305944439608e-003	1.952696e+000	1.802411e+000
2.215402758858382e-003	1.952958e+000	1.803047e+000
2.215512407816579e-003	1.953255e+000	1.803792e+000
2.215598162898854e-003	1.953486e+000	1.804387e+000
2.215771030979710e-003	1.953951e+000	1.805606e+000
2.216077032946766e-003	1.954768e+000	1.807779e+000
2.219074115173613e-003	1.962389e+000	1.827631e+000
2.222071197400460e-003	1.969310e+000	1.846028e+000
2.225068279627307e-003	1.975530e+000	1.862970e+000
2.228065361854154e-003	1.981049e+000	1.878457e+000
2.231062444081001e-003	1.985867e+000	1.892489e+000
2.234059526307848e-003	1.989984e+000	1.905065e+000
2.237056608534695e-003	1.993400e+000	1.916186e+000
2.241939421034695e-003	1.997442e+000	1.932351e+000
2.246822233534695e-003	1.999604e+000	1.945685e+000
2.251705046034695e-003	1.999884e+000	1.956399e+000
2.256587858534695e-003	1.998282e+000	1.964662e+000
2.261470671034695e-003	1.994799e+000	1.970611e+000
2.266353483534695e-003	1.989438e+000	1.974373e+000
2.271236296034694e-003	1.982206e+000	1.976321e+000
2.273729292123961e-003	1.977793e+000	1.976619e+000
2.275703312376842e-003	1.973955e+000	1.976493e+000
2.277827038196699e-003	1.969486e+000	1.976175e+000
2.279982096474669e-003	1.964593e+000	1.975773e+000
2.282634382185818e-003	1.958077e+000	1.975244e+000
2.285416694125498e-003	1.950657e+000	1.974683e+000
2.290299506625498e-003	1.936195e+000	1.973694e+000
2.295182319125498e-003	1.919912e+000	1.972701e+000
2.300065131625498e-003	1.901821e+000	1.971706e+000
2.304947944125498e-003	1.881940e+000	1.970709e+000
2.309830756625498e-003	1.860289e+000	1.969713e+000
2.314713569125498e-003	1.836886e+000	1.968721e+000
2.319596381625497e-003	1.811755e+000	1.967740e+000
2.320204666932853e-003	1.808504e+000	1.967619e+000
2.321421237547565e-003	1.801923e+000	1.967380e+000
2.323854378776988e-003	1.788446e+000	1.966901e+000
2.333169520774547e-003	1.733016e+000	1.965069e+000
2.346422868988832e-003	1.641961e+000	1.962465e+000
2.359676217203118e-003	1.541462e+000	1.959865e+000
2.372929565417403e-003	1.431518e+000	1.957268e+000
2.386182913631688e-003	1.312129e+000	1.954675e+000
2.399436261845974e-003	1.183295e+000	1.952085e+000
2.412689610060259e-003	1.045017e+000	1.949499e+000
2.425942958274545e-003	8.972948e-001	1.946916e+000
2.434313493988830e-003	8.013984e-001	1.945286e+000
2.442684029703116e-003	7.039718e-001	1.943658e+000
2.451054565417402e-003	6.050151e-001	1.942031e+000
2.459425101131687e-003	5.045282e-001	1.940406e+000
2.467795636845972e-003	4.025112e-001	1.938782e+000
2.476166172560258e-003	2.989641e-001	1.937159e+000
2.484536708274544e-003	1.938868e-001	1.935538e+000
2.499185145774543e-003	1.011405e-002	1.932703e+000
2.503370413631686e-003	-4.256695e-002	1.931894e+000
2.507555681488829e-003	-9.512791e-002	1.931086e+000
2.511740949345971e-003	-1.475688e-001	1.930277e+000
2.515926217203114e-003	-1.998897e-001	1.929469e+000
2.520111485060257e-003	-2.520905e-001	1.928662e+000
2.524296752917400e-003	-3.041712e-001	1.927854e+000
2.528482020774543e-003	-3.561319e-001	1.927047e+000
2.538247645774542e-003	-4.772183e-001	1.925166e+000
2.548013270774542e-003	-5.954284e-001	1.923286e+000
2.557778895774542e-003	-7.107620e-001	1.921408e+000
2.567544520774542e-003	-8.232193e-001	1.919532e+000
2.577310145774542e-003	-9.328001e-001	1.917657e+000
2.587075770774541e-003	-1.039505e+000	1.915785e+000
2.596841395774541e-003	-1.143333e+000	1.913914e+000
2.612884922560255e-003	-1.305759e+000	1.910845e+000
2.628928449345969e-003	-1.451719e+000	1.907781e+000
2.644971976131683e-003	-1.581210e+000	1.904721e+000
2.661015502917397e-003	-1.694234e+000	1.901667e+000
2.677059029703111e-003	-1.790791e+000	1.898617e+000
2.693102556488825e-003	-1.870880e+000	1.895572e+000
2.709146083274539e-003	-1.934502e+000	1.892533e+000
2.731467511845967e-003	-1.984163e+000	1.888311e+000
2.753788940417395e-003	-1.996430e+000	1.884100e+000
2.776110368988823e-003	-1.971302e+000	1.879897e+000
2.798431797560251e-003	-1.908779e+000	1.875704e+000
2.820753226131679e-003	-1.808862e+000	1.871520e+000
2.843074654703107e-003	-1.671550e+000	1.867346e+000
2.865396083274535e-003	-1.496843e+000	1.863181e+000
